! Series RLC demo load: R=15 ohm, L=6.8 nH, C=2.2 pF
! Resonant near 1.3 GHz; sweeps a classic arc through the chart
# MHz S RI R 50
50 0.996892 -0.069077
51.1076 0.996753 -0.070606
52.2397 0.996607 -0.072168
53.3969 0.996455 -0.073765
54.5798 0.996296 -0.075397
55.7888 0.996130 -0.077065
57.0247 0.995956 -0.078769
58.2879 0.995775 -0.080512
59.5791 0.995586 -0.082292
60.8988 0.995387 -0.084112
62.2479 0.995181 -0.085972
63.6268 0.994964 -0.087874
65.0362 0.994738 -0.089817
66.4769 0.994502 -0.091802
67.9495 0.994256 -0.093832
69.4547 0.993998 -0.095906
70.9933 0.993729 -0.098026
72.5659 0.993447 -0.100192
74.1734 0.993153 -0.102406
75.8165 0.992846 -0.104669
77.4959 0.992524 -0.106982
79.2126 0.992189 -0.109345
80.9673 0.991838 -0.111760
82.7609 0.991471 -0.114228
84.5942 0.991088 -0.116751
86.4682 0.990688 -0.119328
88.3836 0.990270 -0.121963
90.3415 0.989833 -0.124655
92.3427 0.989376 -0.127406
94.3883 0.988898 -0.130217
96.4792 0.988399 -0.133089
98.6164 0.987878 -0.136025
100.801 0.987333 -0.139024
103.034 0.986763 -0.142089
105.316 0.986168 -0.145221
107.649 0.985545 -0.148421
110.034 0.984895 -0.151691
112.471 0.984215 -0.155032
114.963 0.983505 -0.158446
117.509 0.982762 -0.161934
120.112 0.981986 -0.165498
122.773 0.981175 -0.169138
125.493 0.980326 -0.172858
128.273 0.979440 -0.176659
131.114 0.978513 -0.180541
134.019 0.977544 -0.184507
136.987 0.976532 -0.188559
140.022 0.975473 -0.192698
143.124 0.974366 -0.196926
146.294 0.973209 -0.201245
149.535 0.971999 -0.205656
152.847 0.970734 -0.210162
156.233 0.969412 -0.214763
159.694 0.968029 -0.219463
163.232 0.966583 -0.224263
166.848 0.965071 -0.229165
170.544 0.963490 -0.234170
174.321 0.961837 -0.239282
178.183 0.960108 -0.244500
182.13 0.958300 -0.249829
186.165 0.956409 -0.255269
190.288 0.954432 -0.260823
194.504 0.952363 -0.266492
198.812 0.950200 -0.272279
203.216 0.947937 -0.278185
207.718 0.945569 -0.284213
212.319 0.943093 -0.290364
217.023 0.940502 -0.296640
221.83 0.937791 -0.303044
226.744 0.934955 -0.309577
231.767 0.931988 -0.316241
236.901 0.928883 -0.323038
242.149 0.925633 -0.329970
247.513 0.922233 -0.337037
252.996 0.918674 -0.344243
258.6 0.914949 -0.351588
264.329 0.911050 -0.359073
270.184 0.906969 -0.366701
276.169 0.902697 -0.374472
282.287 0.898224 -0.382387
288.54 0.893541 -0.390448
294.932 0.888638 -0.398654
301.465 0.883503 -0.407006
308.143 0.878127 -0.415505
314.969 0.872496 -0.424150
321.946 0.866598 -0.432940
329.078 0.860421 -0.441876
336.368 0.853951 -0.450955
343.819 0.847173 -0.460177
351.435 0.840071 -0.469539
359.22 0.832632 -0.479038
367.177 0.824836 -0.488672
375.311 0.816668 -0.498436
383.625 0.808109 -0.508325
392.123 0.799140 -0.518335
400.809 0.789740 -0.528458
409.688 0.779888 -0.538687
418.763 0.769564 -0.549014
428.04 0.758742 -0.559429
437.522 0.747401 -0.569919
447.214 0.735514 -0.580473
457.12 0.723055 -0.591076
467.246 0.709998 -0.601711
477.597 0.696315 -0.612359
488.176 0.681976 -0.623000
498.99 0.666951 -0.633610
510.044 0.651209 -0.644163
521.343 0.634720 -0.654629
532.891 0.617450 -0.664977
544.696 0.599367 -0.675168
556.762 0.580437 -0.685163
569.095 0.560626 -0.694917
581.702 0.539903 -0.704381
594.588 0.518233 -0.713499
607.759 0.495586 -0.722211
621.222 0.471930 -0.730450
634.983 0.447236 -0.738145
649.049 0.421480 -0.745215
663.427 0.394638 -0.751574
678.123 0.366692 -0.757127
693.145 0.337628 -0.761772
708.499 0.307441 -0.765400
724.194 0.276131 -0.767892
740.236 0.243709 -0.769122
756.634 0.210195 -0.768956
773.395 0.175625 -0.767252
790.527 0.140045 -0.763862
808.039 0.103521 -0.758633
825.938 0.066135 -0.751406
844.234 0.027991 -0.742022
862.936 -0.010786 -0.730320
882.052 -0.050045 -0.716142
901.591 -0.089612 -0.699337
921.563 -0.129285 -0.679763
941.977 -0.168834 -0.657293
962.844 -0.208003 -0.631819
984.172 -0.246511 -0.603257
1005.97 -0.284052 -0.571555
1028.26 -0.320300 -0.536693
1051.04 -0.354911 -0.498693
1074.32 -0.387533 -0.457623
1098.12 -0.417808 -0.413598
1122.44 -0.445386 -0.366783
1147.31 -0.469926 -0.317399
1172.72 -0.491111 -0.265716
1198.7 -0.508656 -0.212051
1225.25 -0.522317 -0.156769
1252.39 -0.531899 -0.100268
1280.14 -0.537260 -0.042980
1308.49 -0.538322 0.014650
1337.48 -0.535069 0.072163
1367.11 -0.527550 0.129106
1397.39 -0.515874 0.185039
1428.35 -0.500212 0.239548
1459.99 -0.480783 0.292248
1492.33 -0.457855 0.342800
1525.39 -0.431731 0.390909
1559.18 -0.402739 0.436330
1593.72 -0.371226 0.478871
1629.02 -0.337549 0.518392
1665.11 -0.302063 0.554803
1701.99 -0.265116 0.588059
1739.69 -0.227044 0.618161
1778.23 -0.188163 0.645145
1817.62 -0.148767 0.669080
1857.89 -0.109125 0.690064
1899.04 -0.069479 0.708214
1941.11 -0.030045 0.723666
1984.11 0.008990 0.736566
2028.06 0.047462 0.747071
2072.99 0.085235 0.755338
2118.91 0.122195 0.761530
2165.85 0.158248 0.765805
2213.82 0.193322 0.768319
2262.86 0.227360 0.769223
2312.99 0.260323 0.768663
2364.23 0.292181 0.766775
2416.6 0.322922 0.763691
2470.13 0.352537 0.759532
2524.85 0.381032 0.754412
2580.78 0.408415 0.748437
2637.95 0.434703 0.741705
2696.38 0.459916 0.734308
2756.12 0.484079 0.726327
2817.17 0.507219 0.717838
2879.57 0.529365 0.708912
2943.36 0.550550 0.699611
3008.56 0.570805 0.689994
3075.21 0.590164 0.680111
3143.33 0.608660 0.670011
3212.96 0.626326 0.659736
3284.13 0.643195 0.649324
3356.88 0.659300 0.638809
3431.25 0.674673 0.628224
3507.25 0.689346 0.617595
3584.95 0.703348 0.606947
3664.36 0.716710 0.596303
3745.53 0.729459 0.585683
3828.5 0.741624 0.575103
3913.31 0.753231 0.564579
4000 0.764305 0.554126
